# Hz S RI R 50
!
!freq  reS11 imS11 reS12 imS12 reS13 imS13 reS14 imS14 reS15 imS15 reS16 imS16 reS21 imS21 reS22 imS22 reS23 imS23 reS24 imS24 reS25 imS25 reS26 imS26 reS31 imS31 reS32 imS32 reS33 imS33 reS34 imS34 reS35 imS35 reS36 imS36 reS41 imS41 reS42 imS42  reS43 imS43 reS44 imS44 reS45 imS45 reS46 imS46 reS51 imS51 reS52 imS52 reS53 imS53 reS54 imS54 reS55 imS55 reS56 imS56 reS61 imS61 reS62 imS62  reS63 imS63 reS64 imS64 reS65 imS65 reS66 imS66 
1000000	-0.31969	1.37e-05	0.64899	-3.1504e-05	-1.2464e-09	-9.9135e-06	1.4434e-09	2.6684e-05	0.6707	-1.2345e-05	2.1669e-10	9.9127e-06	0.64899	-3.1504e-05	-0.29972	1.3383e-05	1.4268e-09	2.6511e-05	-1.198e-09	-9.5073e-06	0.65073	-1.1867e-05	2.1322e-10	9.5149e-06	-1.2464e-09	-9.9135e-06	1.4268e-09	2.6511e-05	-0.30507	1.4554e-05	0.64642	-3.4903e-05	2.3758e-10	1.0082e-05	0.65864	-1.4027e-05	1.4434e-09	2.6684e-05	-1.198e-09	-9.5073e-06	0.64642	-3.4903e-05	-0.29939	1.4483e-05	2.0572e-10	9.4428e-06	0.65297	-1.3892e-05	0.6707	-1.2345e-05	0.65073	-1.1867e-05	2.3758e-10	1.0082e-05	2.0572e-10	9.4428e-06	-0.32143	-5.8883e-06	-5.5384e-11	7.1175e-06	2.1669e-10	9.9127e-06	2.1322e-10	9.5149e-06	0.65864	-1.4027e-05	0.65297	-1.3892e-05	-5.5384e-11	7.1175e-06	-0.31161	-6.2855e-06	
1001000000	-0.31873	0.013466	0.64745	-0.031285	-0.0010849	-0.0096254	0.0013208	0.02651	0.67026	-0.012298	0.00021271	0.0099262	0.64745	-0.031285	-0.29879	0.013145	0.0013056	0.026342	-0.0010397	-0.0092277	0.6503	-0.011812	0.00021063	0.0095294	-0.0010849	-0.0096254	0.0013056	0.026342	-0.3038	0.014009	0.64387	-0.034195	0.00023229	0.010092	0.65778	-0.013836	0.0013208	0.02651	-0.0010397	-0.0092277	0.64387	-0.034195	-0.29819	0.013964	0.00020427	0.0094617	0.65213	-0.013724	0.67026	-0.012298	0.6503	-0.011812	0.00023229	0.010092	0.00020427	0.0094617	-0.32156	-0.0059596	-1.2345e-05	0.0072203	0.00021271	0.0099262	0.00021063	0.0095294	0.65778	-0.013836	0.65213	-0.013724	-1.2345e-05	0.0072203	-0.31198	-0.0063045	
2001000000	-0.3165	0.026273	0.64345	-0.061801	-0.0035465	-0.018372	0.0047773	0.052495	0.6691	-0.024366	0.00086539	0.019896	0.64345	-0.061801	-0.29667	0.025643	0.0047323	0.052177	-0.0033873	-0.017609	0.64916	-0.023389	0.00086089	0.019103	-0.0035465	-0.018372	0.0047323	0.052177	-0.30161	0.026878	0.63822	-0.066246	0.00093054	0.020214	0.65572	-0.026861	0.0047773	0.052495	-0.0033873	-0.017609	0.63822	-0.066246	-0.2961	0.026853	0.00085015	0.018985	0.6501	-0.02669	0.6691	-0.024366	0.64916	-0.023389	0.00093054	0.020214	0.00085015	0.018985	-0.32215	-0.01205	0.00022923	0.014763	0.00086539	0.019896	0.00086089	0.019103	0.65572	-0.026861	0.6501	-0.02669	0.00022923	0.014763	-0.31319	-0.01242	
3001000000	-0.31329	0.038665	0.63733	-0.091677	-0.0068811	-0.026487	0.01024	0.078125	0.66736	-0.036224	0.0020538	0.029929	0.63733	-0.091677	-0.29365	0.037757	0.010164	0.077667	-0.0065548	-0.025393	0.64745	-0.034757	0.0020458	0.028738	-0.0068811	-0.026487	0.010164	0.077667	-0.29882	0.039587	0.6307	-0.096903	0.002183	0.030392	0.6531	-0.03914	0.01024	0.078125	-0.0065548	-0.025393	0.6307	-0.096903	-0.29344	0.03961	0.0020477	0.028579	0.64748	-0.038917	0.66736	-0.036224	0.64745	-0.034757	0.002183	0.030392	0.0020477	0.028579	-0.32329	-0.018127	0.0010085	0.022532	0.0020538	0.029929	0.0020458	0.028738	0.6531	-0.03914	0.64748	-0.038917	0.0010085	0.022532	-0.31499	-0.018097	
4001000000	-0.30908	0.050675	0.62915	-0.12089	-0.011035	-0.034119	0.017787	0.10329	0.66507	-0.047897	0.0038389	0.039947	0.62915	-0.12089	-0.28967	0.049532	0.017678	0.1027	-0.010495	-0.032733	0.64521	-0.04594	0.0038287	0.038354	-0.011035	-0.034119	0.017678	0.1027	-0.29502	0.052218	0.6214	-0.12659	0.0040543	0.040551	0.65015	-0.050939	0.017787	0.10329	-0.010495	-0.032733	0.6214	-0.12659	-0.28979	0.052316	0.0038611	0.038154	0.6445	-0.050651	0.66507	-0.047897	0.64521	-0.04594	0.0040543	0.040551	0.0038611	0.038154	-0.32494	-0.024114	0.0023932	0.030352	0.0038389	0.039947	0.0038287	0.038354	0.65015	-0.050939	0.6445	-0.050651	0.0023932	0.030352	-0.31712	-0.023412	
5001000000	-0.30386	0.062225	0.61894	-0.14934	-0.016018	-0.041283	0.027408	0.12781	0.66225	-0.059386	0.0062198	0.049867	0.61894	-0.14934	-0.28473	0.060896	0.027263	0.12708	-0.015224	-0.039649	0.64245	-0.056937	0.0062091	0.047866	-0.016018	-0.041283	0.027263	0.12708	-0.29008	0.064554	0.61028	-0.15539	0.0065451	0.050605	0.64687	-0.062436	0.027408	0.12781	-0.015224	-0.039649	0.61028	-0.15539	-0.28503	0.064758	0.0062879	0.04762	0.64119	-0.062067	0.66225	-0.059386	0.64245	-0.056937	0.0065451	0.050605	0.0062879	0.04762	-0.32707	-0.029984	0.0043625	0.038111	0.0062198	0.049867	0.0062091	0.047866	0.64687	-0.062436	0.64119	-0.062067	0.0043625	0.038111	-0.31953	-0.028495	
6001000000	-0.29766	0.07322	0.60675	-0.1769	-0.021831	-0.047934	0.03904	0.1515	0.6589	-0.070679	0.0091721	0.059633	0.60675	-0.1769	-0.27885	0.071763	0.038855	0.15063	-0.020749	-0.046103	0.63917	-0.067733	0.0091611	0.057212	-0.021831	-0.047934	0.038855	0.15063	-0.28403	0.076402	0.59729	-0.18326	0.0096308	0.060496	0.64323	-0.073711	0.03904	0.1515	-0.020749	-0.046103	0.59729	-0.18326	-0.27919	0.076752	0.0093005	0.056912	0.63751	-0.07324	0.6589	-0.070679	0.63917	-0.067733	0.0096308	0.060496	0.0093005	0.056912	-0.32965	-0.035715	0.0068797	0.045743	0.0091721	0.059633	0.0091611	0.057212	0.64323	-0.073711	0.63751	-0.07324	0.0068797	0.045743	-0.32225	-0.033415	
7001000000	-0.29054	0.083573	0.59265	-0.20342	-0.028455	-0.054004	0.052603	0.1742	0.65504	-0.081755	0.012669	0.069208	0.59265	-0.20342	-0.27208	0.082051	0.052371	0.17321	-0.02706	-0.052033	0.63539	-0.078306	0.012655	0.066351	-0.028455	-0.054004	0.052371	0.17321	-0.27695	0.087626	0.58245	-0.21011	0.013284	0.070183	0.63919	-0.084782	0.052603	0.1742	-0.02706	-0.052033	0.58245	-0.21011	-0.27233	0.08817	0.012868	0.065989	0.63343	-0.084187	0.65504	-0.081755	0.63539	-0.078306	0.013284	0.070183	0.012868	0.065989	-0.33269	-0.041289	0.0099123	0.053207	0.012669	0.069208	0.012655	0.066351	0.63919	-0.084782	0.63343	-0.084187	0.0099123	0.053207	-0.32529	-0.038191	
8001000000	-0.28256	0.093204	0.57672	-0.22879	-0.035855	-0.059421	0.068008	0.19579	0.65066	-0.092593	0.016688	0.078563	0.57672	-0.22879	-0.26447	0.091686	0.067724	0.19466	-0.034132	-0.057368	0.63112	-0.088631	0.016664	0.075252	-0.035855	-0.059421	0.067724	0.19466	-0.2689	0.098122	0.56579	-0.23579	0.01748	0.079636	0.63472	-0.095641	0.068008	0.19579	-0.034132	-0.057368	0.56579	-0.23579	-0.26452	0.098911	0.016961	0.074817	0.62892	-0.094899	0.65066	-0.092593	0.63112	-0.088631	0.01748	0.079636	0.016961	0.074817	-0.33618	-0.046683	0.013434	0.060473	0.016688	0.078563	0.016664	0.075252	0.63472	-0.095641	0.62892	-0.094899	0.013434	0.060473	-0.32869	-0.042815	
9001000000	-0.27379	0.10204	0.55906	-0.25289	-0.043985	-0.064108	0.085163	0.21613	0.64579	-0.10317	0.021207	0.087674	0.55906	-0.25289	-0.25608	0.1006	0.084821	0.21487	-0.041925	-0.062039	0.62637	-0.098684	0.021164	0.08389	-0.043985	-0.064108	0.084821	0.21487	-0.25999	0.1078	0.54738	-0.26019	0.022197	0.088828	0.6298	-0.10627	0.085163	0.21613	-0.041925	-0.062039	0.54738	-0.26019	-0.25585	0.1089	0.021555	0.08337	0.62398	-0.10536	0.64579	-0.10317	0.62637	-0.098684	0.022197	0.088828	0.021555	0.08337	-0.3401	-0.051875	0.017426	0.067517	0.021207	0.087674	0.021164	0.08389	0.6298	-0.10627	0.62398	-0.10536	0.017426	0.067517	-0.33245	-0.047268	
10001000000	-0.2643	0.11002	0.53976	-0.2756	-0.052788	-0.067995	0.10397	0.2351	0.64044	-0.11346	0.02621	0.096518	0.53976	-0.2756	-0.24696	0.10872	0.10356	0.23371	-0.050393	-0.065975	0.62115	-0.10844	0.026133	0.09224	-0.052788	-0.067995	0.10356	0.23371	-0.25029	0.11659	0.52729	-0.28317	0.027417	0.097737	0.62444	-0.11664	0.10397	0.2351	-0.050393	-0.065975	0.52729	-0.28317	-0.24638	0.11805	0.026626	0.091621	0.61861	-0.11554	0.64044	-0.11346	0.62115	-0.10844	0.027417	0.097737	0.026626	0.091621	-0.34445	-0.05684	0.021867	0.074314	0.02621	0.096518	0.026133	0.09224	0.62444	-0.11664	0.61861	-0.11554	0.021867	0.074314	-0.33659	-0.051525	
11001000000	-0.25416	0.11708	0.51893	-0.29681	-0.062196	-0.071012	0.12433	0.25257	0.63462	-0.12345	0.031679	0.10507	0.51893	-0.29681	-0.23719	0.116	0.12385	0.25106	-0.059482	-0.069108	0.61549	-0.11788	0.031549	0.10028	-0.062196	-0.071012	0.12385	0.25106	-0.23989	0.12442	0.50562	-0.30461	0.033122	0.10634	0.61864	-0.12674	0.12433	0.25257	-0.059482	-0.069108	0.50562	-0.30461	-0.23619	0.12631	0.032152	0.099549	0.61281	-0.12542	0.63462	-0.12345	0.61549	-0.11788	0.033122	0.10634	0.032152	0.099549	-0.34921	-0.061553	0.026742	0.080841	0.031679	0.10507	0.031549	0.10028	0.61864	-0.12674	0.61281	-0.12542	0.026742	0.080841	-0.3411	-0.055562	
12001000000	-0.24347	0.12315	0.49667	-0.31642	-0.072137	-0.073094	0.14612	0.26844	0.62834	-0.13311	0.037599	0.11332	0.49667	-0.31642	-0.22683	0.12237	0.14556	0.26681	-0.069126	-0.071372	0.60941	-0.12698	0.037391	0.10799	-0.072137	-0.073094	0.14556	0.26681	-0.22887	0.13122	0.48247	-0.32438	0.039294	0.11461	0.6124	-0.13653	0.14612	0.26844	-0.069126	-0.071372	0.48247	-0.32438	-0.22536	0.1336	0.03811	0.10713	0.6066	-0.13498	0.62834	-0.13311	0.60941	-0.12698	0.039294	0.11461	0.03811	0.10713	-0.35438	-0.06599	0.032033	0.087077	0.037599	0.11332	0.037391	0.10799	0.6124	-0.13653	0.6066	-0.13498	0.032033	0.087077	-0.34598	-0.059352	
13001000000	-0.2323	0.1282	0.4731	-0.33432	-0.082528	-0.074182	0.16922	0.2826	0.62162	-0.14242	0.043951	0.12123	0.4731	-0.33432	-0.21597	0.12778	0.16859	0.28084	-0.079255	-0.072706	0.60292	-0.13571	0.043639	0.11535	-0.082528	-0.074182	0.16859	0.28084	-0.21734	0.13695	0.45797	-0.34238	0.045914	0.12252	0.60574	-0.146	0.16922	0.2826	-0.079255	-0.072706	0.45797	-0.34238	-0.21396	0.13987	0.044477	0.11434	0.6	-0.14419	0.62162	-0.14242	0.60292	-0.13571	0.045914	0.12252	0.044477	0.11434	-0.35995	-0.070125	0.037723	0.092997	0.043951	0.12123	0.043639	0.11535	0.60574	-0.146	0.6	-0.14419	0.037723	0.092997	-0.35122	-0.062868	
14001000000	-0.22075	0.13218	0.44836	-0.35042	-0.093277	-0.074222	0.19351	0.29494	0.61449	-0.15135	0.05072	0.12879	0.44836	-0.35042	-0.20468	0.13218	0.19278	0.29307	-0.089789	-0.073052	0.59606	-0.14406	0.050269	0.12234	-0.093277	-0.074222	0.19278	0.29307	-0.20539	0.14153	0.43226	-0.35849	0.052965	0.13006	0.59867	-0.15511	0.19351	0.29494	-0.089789	-0.073052	0.43226	-0.35849	-0.2021	0.14506	0.05123	0.12117	0.59302	-0.15303	0.61449	-0.15135	0.59606	-0.14406	0.052965	0.13006	0.05123	0.12117	-0.36589	-0.073934	0.043794	0.098581	0.05072	0.12879	0.050269	0.12234	0.59867	-0.15511	0.59302	-0.15303	0.043794	0.098581	-0.3568	-0.066087	
15001000000	-0.20892	0.13504	0.42257	-0.36463	-0.10429	-0.07317	0.21884	0.30537	0.60695	-0.15989	0.057886	0.13597	0.42257	-0.36463	-0.19305	0.13553	0.21802	0.30338	-0.10064	-0.072359	0.58883	-0.15201	0.057259	0.12894	-0.10429	-0.07317	0.21802	0.30338	-0.19313	0.14494	0.40546	-0.37262	0.060426	0.13719	0.5912	-0.16384	0.21884	0.30537	-0.10064	-0.072359	0.40546	-0.37262	-0.18987	0.14912	0.058343	0.12759	0.58568	-0.16148	0.60695	-0.15989	0.58883	-0.15201	0.060426	0.13719	0.058343	0.12759	-0.37218	-0.077393	0.050225	0.10381	0.057886	0.13597	0.057259	0.12894	0.5912	-0.16384	0.58568	-0.16148	0.050225	0.10381	-0.36272	-0.068983	
16001000000	-0.19691	0.13676	0.39589	-0.37687	-0.11545	-0.070987	0.24506	0.31381	0.59903	-0.16801	0.065429	0.14275	0.39589	-0.37687	-0.18117	0.13778	0.24414	0.31171	-0.11171	-0.070583	0.58127	-0.15954	0.064585	0.13513	-0.11545	-0.070987	0.24414	0.31171	-0.18068	0.14714	0.37776	-0.38468	0.068274	0.1439	0.58336	-0.17217	0.24506	0.31381	-0.11171	-0.070583	0.37776	-0.38468	-0.17738	0.15202	0.065791	0.13358	0.578	-0.16951	0.59903	-0.16801	0.58127	-0.15954	0.068274	0.1439	0.065791	0.13358	-0.37882	-0.080479	0.056995	0.10865	0.065429	0.14275	0.064585	0.13513	0.58336	-0.17217	0.578	-0.16951	0.056995	0.10865	-0.36894	-0.071535	
17001000000	-0.18483	0.13732	0.36846	-0.38708	-0.12666	-0.067649	0.27201	0.32019	0.59076	-0.17568	0.073327	0.14912	0.36846	-0.38708	-0.16915	0.13892	0.27097	0.31798	-0.1229	-0.067688	0.5734	-0.16663	0.072222	0.1409	-0.12666	-0.067649	0.27097	0.31798	-0.16816	0.14811	0.3493	-0.39459	0.076485	0.15015	0.57516	-0.18008	0.27201	0.32019	-0.1229	-0.067688	0.3493	-0.39459	-0.16473	0.15371	0.073548	0.13912	0.57001	-0.17712	0.59076	-0.17568	0.5734	-0.16663	0.076485	0.15015	0.073548	0.13912	-0.38576	-0.08317	0.064083	0.1131	0.073327	0.14912	0.072222	0.1409	0.57516	-0.18008	0.57001	-0.17712	0.064083	0.1131	-0.37546	-0.073719	
18001000000	-0.1728	0.1367	0.34046	-0.39521	-0.1378	-0.063139	0.29952	0.32444	0.58215	-0.1829	0.081558	0.15504	0.34046	-0.39521	-0.15709	0.13891	0.29837	0.32214	-0.1341	-0.06365	0.56525	-0.17327	0.080143	0.14622	-0.1378	-0.063139	0.29837	0.32214	-0.15568	0.14782	0.32027	-0.40231	0.085036	0.15594	0.56663	-0.18754	0.29952	0.32444	-0.1341	-0.06365	0.32027	-0.40231	-0.15204	0.15417	0.081584	0.14421	0.56173	-0.18429	0.58215	-0.1829	0.56525	-0.17327	0.085036	0.15594	0.081584	0.14421	-0.39301	-0.085444	0.071465	0.11713	0.081558	0.15504	0.080143	0.14622	0.56663	-0.18754	0.56173	-0.18429	0.071465	0.11713	-0.38225	-0.075518	
19001000000	-0.16092	0.1349	0.31206	-0.40121	-0.14874	-0.057456	0.3274	0.32653	0.57323	-0.18963	0.090095	0.16051	0.31206	-0.40121	-0.1451	0.13775	0.32613	0.32413	-0.1452	-0.058454	0.55685	-0.17944	0.088321	0.1511	-0.14874	-0.057456	0.32613	0.32413	-0.14339	0.14629	0.29085	-0.40778	0.093897	0.16124	0.5578	-0.19453	0.3274	0.32653	-0.1452	-0.058454	0.29085	-0.40778	-0.13943	0.15339	0.089871	0.14883	0.5532	-0.19099	0.57323	-0.18963	0.55685	-0.17944	0.093897	0.16124	0.089871	0.14883	-0.40051	-0.087284	0.079115	0.12073	0.090095	0.16051	0.088321	0.1511	0.5578	-0.19453	0.5532	-0.19099	0.079115	0.12073	-0.38928	-0.076911	
20001000000	-0.14933	0.13195	0.28342	-0.40505	-0.15937	-0.050611	0.35548	0.32642	0.56403	-0.19586	0.098912	0.16549	0.28342	-0.40505	-0.13329	0.13544	0.35409	0.32394	-0.15607	-0.052099	0.54823	-0.18513	0.096728	0.1555	-0.15937	-0.050611	0.35409	0.32394	-0.1314	0.14353	0.26124	-0.41098	0.10304	0.16603	0.54868	-0.20104	0.35548	0.32642	-0.15607	-0.052099	0.26124	-0.41098	-0.12703	0.15138	0.098379	0.15296	0.54443	-0.19722	0.56403	-0.19586	0.54823	-0.18513	0.10304	0.16603	0.098379	0.15296	-0.40826	-0.088671	0.087007	0.12387	0.098912	0.16549	0.096728	0.1555	0.54868	-0.20104	0.54443	-0.19722	0.087007	0.12387	-0.39654	-0.077881	
21001000000	-0.13813	0.12785	0.25473	-0.40674	-0.16956	-0.042629	0.38357	0.32412	0.55458	-0.20158	0.10798	0.16999	0.25473	-0.40674	-0.12178	0.13199	0.38205	0.32155	-0.1666	-0.044597	0.53941	-0.19034	0.10533	0.15943	-0.16956	-0.042629	0.38205	0.32155	-0.11984	0.13957	0.23163	-0.41191	0.11243	0.1703	0.53931	-0.20704	0.38357	0.32412	-0.1666	-0.044597	0.23163	-0.41191	-0.11497	0.14816	0.10708	0.15659	0.53546	-0.20296	0.55458	-0.20158	0.53941	-0.19034	0.11243	0.1703	0.10708	0.15659	-0.41622	-0.089589	0.095112	0.12655	0.10798	0.16999	0.10533	0.15943	0.53931	-0.20704	0.53546	-0.20296	0.095112	0.12655	-0.404	-0.078415	
22001000000	-0.12744	0.12266	0.22618	-0.40628	-0.17919	-0.033552	0.41148	0.31963	0.54492	-0.20676	0.11727	0.17397	0.22618	-0.40628	-0.1107	0.12743	0.40982	0.31698	-0.17666	-0.035975	0.53042	-0.19505	0.11411	0.16288	-0.17919	-0.033552	0.40982	0.31698	-0.10885	0.13445	0.20221	-0.41058	0.12204	0.17402	0.52972	-0.21253	0.41148	0.31963	-0.17666	-0.035975	0.20221	-0.41058	-0.10337	0.14374	0.11593	0.15973	0.52632	-0.20822	0.54492	-0.20676	0.53042	-0.19505	0.12204	0.17402	0.11593	0.15973	-0.42436	-0.090025	0.1034	0.12875	0.11727	0.17397	0.11411	0.16288	0.52972	-0.21253	0.52632	-0.20822	0.1034	0.12875	-0.41162	-0.078497	
23001000000	-0.11739	0.11643	0.19793	-0.4037	-0.18813	-0.023436	0.43902	0.31299	0.53507	-0.2114	0.12675	0.17743	0.19793	-0.4037	-0.10014	0.12179	0.43722	0.31026	-0.18613	-0.026276	0.52131	-0.19926	0.12303	0.16584	-0.18813	-0.023436	0.43722	0.31026	-0.098554	0.12825	0.17318	-0.40703	0.13184	0.17719	0.51994	-0.21748	0.43902	0.31299	-0.18613	-0.026276	0.17318	-0.40703	-0.092368	0.13819	0.12492	0.16235	0.51703	-0.21297	0.53507	-0.2114	0.52131	-0.19926	0.13184	0.17719	0.12492	0.16235	-0.43265	-0.089968	0.11185	0.13046	0.12675	0.17743	0.12303	0.16584	0.51994	-0.21748	0.51703	-0.21297	0.11185	0.13046	-0.41939	-0.078118	
24001000000	-0.10807	0.10923	0.17018	-0.39904	-0.19629	-0.01235	0.466	0.30424	0.52507	-0.21548	0.13639	0.18037	0.17018	-0.39904	-0.09023	0.11514	0.46406	0.30145	-0.1949	-0.015555	0.51209	-0.20297	0.13206	0.1683	-0.19629	-0.01235	0.46406	0.30145	-0.089055	0.12102	0.14473	-0.40131	0.14178	0.17979	0.51001	-0.22189	0.466	0.30424	-0.1949	-0.015555	0.14473	-0.40131	-0.082073	0.13156	0.134	0.16447	0.50764	-0.21723	0.52507	-0.21548	0.51209	-0.20297	0.14178	0.17979	0.134	0.16447	-0.44106	-0.089408	0.12042	0.13168	0.13639	0.18037	0.13206	0.1683	0.51001	-0.22189	0.50764	-0.21723	0.12042	0.13168	-0.42727	-0.077267	
25001000000	-0.099588	0.10114	0.1431	-0.39238	-0.20355	-0.0003803	0.49225	0.29345	0.51496	-0.219	0.14615	0.18276	0.1431	-0.39238	-0.081069	0.10753	0.49016	0.2906	-0.20286	-0.0038847	0.50281	-0.20617	0.14116	0.17027	-0.20355	-0.0003803	0.49016	0.2906	-0.080467	0.11288	0.11704	-0.39351	0.15183	0.18181	0.49996	-0.22574	0.49225	0.29345	-0.20286	-0.0038847	0.11704	-0.39351	-0.072603	0.12393	0.14314	0.16608	0.49816	-0.22097	0.51496	-0.219	0.50281	-0.20617	0.15183	0.18181	0.14314	0.16608	-0.44956	-0.088339	0.12908	0.13239	0.14615	0.18276	0.14116	0.17027	0.49996	-0.22574	0.49816	-0.22097	0.12908	0.13239	-0.43524	-0.075939	
26001000000	-0.092035	0.092243	0.11684	-0.38379	-0.20982	0.012376	0.5176	0.28072	0.50477	-0.22195	0.15599	0.1846	0.11684	-0.38379	-0.072756	0.099064	0.51536	0.27782	-0.2099	0.0086499	0.49348	-0.20887	0.15032	0.17175	-0.20982	0.012376	0.51536	0.27782	-0.072884	0.10391	0.090293	-0.3837	0.16195	0.18326	0.48983	-0.22904	0.5176	0.28072	-0.2099	0.0086499	0.090293	-0.3837	-0.064063	0.11539	0.15232	0.16717	0.48863	-0.22422	0.50477	-0.22195	0.49348	-0.20887	0.16195	0.18326	0.15232	0.16717	-0.4581	-0.086756	0.13781	0.1326	0.15599	0.1846	0.15032	0.17175	0.48983	-0.22904	0.48863	-0.22422	0.13781	0.1326	-0.44325	-0.074127	
27001000000	-0.085487	0.082657	0.091574	-0.37339	-0.21503	0.025811	0.54188	0.26615	0.49453	-0.22434	0.16589	0.18589	0.091574	-0.37339	-0.065379	0.08982	0.53949	0.2632	-0.21594	0.021951	0.48414	-0.21107	0.1595	0.17273	-0.21503	0.025811	0.53949	0.2632	-0.066388	0.094236	0.064646	-0.37202	0.17211	0.18413	0.47965	-0.23178	0.54188	0.26615	-0.21594	0.021951	0.064646	-0.37202	-0.056544	0.10605	0.16149	0.16776	0.47909	-0.22696	0.49453	-0.22434	0.48414	-0.21107	0.17211	0.18413	0.16149	0.16776	-0.46667	-0.084658	0.14656	0.13229	0.16589	0.18589	0.1595	0.17273	0.47965	-0.23178	0.47909	-0.22696	0.14656	0.13229	-0.45128	-0.071831	
28001000000	-0.080011	0.072492	0.067428	-0.36128	-0.2191	0.039805	0.56495	0.24986	0.4843	-0.22615	0.1758	0.18664	0.067428	-0.36128	-0.059013	0.079907	0.56241	0.24688	-0.2209	0.035909	0.47483	-0.21277	0.16866	0.17322	-0.2191	0.039805	0.56241	0.24688	-0.061046	0.083984	0.040247	-0.35858	0.18226	0.18442	0.46946	-0.23396	0.56495	0.24986	-0.2209	0.035909	0.040247	-0.35858	-0.050128	0.096021	0.17064	0.16784	0.46955	-0.2292	0.4843	-0.22615	0.47483	-0.21277	0.18226	0.18442	0.17064	0.16784	-0.47522	-0.082046	0.15531	0.13148	0.1758	0.18664	0.16866	0.17322	0.46946	-0.23396	0.46955	-0.2292	0.15531	0.13148	-0.45931	-0.069049	
29001000000	-0.075656	0.061869	0.044534	-0.34759	-0.22198	0.054234	0.58669	0.23199	0.4741	-0.2274	0.1857	0.18684	0.044534	-0.34759	-0.053721	0.069438	0.58399	0.22898	-0.22471	0.050406	0.46556	-0.21399	0.17779	0.17323	-0.22198	0.054234	0.58399	0.22898	-0.056908	0.073285	0.017225	-0.34354	0.19236	0.18413	0.45929	-0.23559	0.58669	0.23199	-0.22471	0.050406	0.017225	-0.34354	-0.044878	0.085432	0.17972	0.16743	0.46005	-0.23095	0.4741	-0.2274	0.46556	-0.21399	0.19236	0.18413	0.17972	0.16743	-0.48373	-0.078924	0.16402	0.13017	0.1857	0.18684	0.17779	0.17323	0.45929	-0.23559	0.46005	-0.23095	0.16402	0.13017	-0.46729	-0.065784	
